Time [s], Analyzer Name, Decoded Protocol Result
0.004842540000000,LIN,Header Break
0.005634200000000,LIN,Inter-Byte Space
0.005655620000000,LIN,Header Sync
0.006111420000000,LIN,Inter-Byte Space
0.006133940000000,LIN,Protected ID: 0x1B
0.014889980000000,LIN,Header Break
0.015651160000000,LIN,Inter-Byte Space
0.015703060000000,LIN,Header Sync
0.016158860000000,LIN,Inter-Byte Space
0.016181400000000,LIN,Protected ID: 0x21
0.016637200000000,LIN,Inter-Byte Space
0.016659720000000,LIN,Data 0: 0x00
0.017115520000000,LIN,Inter-Byte Space
0.017138040000000,LIN,Data 1: 0x00
0.017593840000000,LIN,Inter-Byte Space
0.017616380000000,LIN,Data 2: 0xF8
0.018072180000000,LIN,Inter-Byte Space
0.018094740000000,LIN,Data 3: 0xFF
0.018550540000000,LIN,Inter-Byte Space
0.018573060000000,LIN,Checksum: 0xA5
0.024820960000000,LIN,Header Break
0.025582140000000,LIN,Inter-Byte Space
0.025634040000000,LIN,Header Sync
0.026089840000000,LIN,Inter-Byte Space
0.026112380000000,LIN,Protected ID: 0x01
0.026568180000000,LIN,Inter-Byte Space
0.026590720000000,LIN,Data 0: 0x00
0.027046520000000,LIN,Inter-Byte Space
0.027069020000000,LIN,Data 1: 0x00
0.027524820000000,LIN,Inter-Byte Space
0.027547360000000,LIN,Data 2: 0xF8
0.028003160000000,LIN,Inter-Byte Space
0.028025720000000,LIN,Data 3: 0xFF
0.028481520000000,LIN,Inter-Byte Space
0.028504040000000,LIN,Data 4: 0x45
0.034822500000000,LIN,Header Break
0.035583660000000,LIN,Inter-Byte Space
0.035635580000000,LIN,Header Sync
0.036091380000000,LIN,Inter-Byte Space
0.036113920000000,LIN,Protected ID: 0x29
0.036569720000000,LIN,Inter-Byte Space
0.036592260000000,LIN,Data 0: 0x00
0.037048060000000,LIN,Inter-Byte Space
0.037070580000000,LIN,Data 1: 0x00
0.037526380000000,LIN,Inter-Byte Space
0.037548900000000,LIN,Data 2: 0xF8
0.038004700000000,LIN,Inter-Byte Space
0.038027260000000,LIN,Data 3: 0xFF
0.038483060000000,LIN,Inter-Byte Space
0.038505580000000,LIN,Checksum: 0x1D
0.044820920000000,LIN,Header Break
0.045582080000000,LIN,Inter-Byte Space
0.045634020000000,LIN,Header Sync
0.046089820000000,LIN,Inter-Byte Space
0.046112340000000,LIN,Protected ID: 0x09
0.046568140000000,LIN,Inter-Byte Space
0.046590660000000,LIN,Data 0: 0x00
0.047046460000000,LIN,Inter-Byte Space
0.047068980000000,LIN,Data 1: 0x00
0.047524780000000,LIN,Inter-Byte Space
0.047547320000000,LIN,Data 2: 0xF8
0.048003120000000,LIN,Inter-Byte Space
0.048025680000000,LIN,Data 3: 0xFF
0.048481480000000,LIN,Inter-Byte Space
0.048504000000000,LIN,Data 4: 0xBD
0.074783460000000,LIN,Header Break
0.075544620000000,LIN,Inter-Byte Space
0.075596540000000,LIN,Header Sync
0.076052340000000,LIN,Inter-Byte Space
0.076074880000000,LIN,Protected ID: 0x34
0.076530680000000,LIN,Inter-Byte Space
0.076553200000000,LIN,Data 0: 0xFE
0.077009000000000,LIN,Inter-Byte Space
0.077031560000000,LIN,Data 1: 0xFF
0.077487360000000,LIN,Inter-Byte Space
0.077509900000000,LIN,Data 2: 0x4C
0.084805660000000,LIN,Header Break
0.085566840000000,LIN,Inter-Byte Space
0.085618740000000,LIN,Header Sync
0.086074540000000,LIN,Inter-Byte Space
0.086097080000000,LIN,Protected ID: 0x35
0.134786780000000,LIN,Header Break
0.135547960000000,LIN,Inter-Byte Space
0.135599860000000,LIN,Header Sync
0.136055660000000,LIN,Inter-Byte Space
0.136078180000000,LIN,Protected ID: 0x15
0.136533980000000,LIN,Inter-Byte Space
0.136569040000000,LIN,Data 0: 0x00
0.137024840000000,LIN,Inter-Byte Space
0.137047100000000,LIN,Data 1: 0xA2
0.137502900000000,LIN,Inter-Byte Space
0.137525140000000,LIN,Data 2: 0x80
0.137980940000000,LIN,Inter-Byte Space
0.138003240000000,LIN,Data 3: 0x00
0.138459040000000,LIN,Inter-Byte Space
0.138481320000000,LIN,Checksum: 0x87
0.144764700000000,LIN,Header Break
0.145525880000000,LIN,Inter-Byte Space
0.145577800000000,LIN,Header Sync
0.146033600000000,LIN,Inter-Byte Space
0.146056120000000,LIN,Protected ID: 0x20
0.146511920000000,LIN,Inter-Byte Space
0.146534440000000,LIN,Data 0: 0x00
0.146990240000000,LIN,Inter-Byte Space
0.147012780000000,LIN,Data 1: 0x00
0.147468580000000,LIN,Inter-Byte Space
0.147491100000000,LIN,Data 2: 0xF8
0.147946900000000,LIN,Inter-Byte Space
0.147969460000000,LIN,Data 3: 0xFC
0.148425260000000,LIN,Inter-Byte Space
0.148447780000000,LIN,Data 4: 0xE9
0.154731340000000,LIN,Header Break
0.155492520000000,LIN,Inter-Byte Space
0.155544440000000,LIN,Header Sync
0.156000240000000,LIN,Inter-Byte Space
0.156022760000000,LIN,Protected ID: 0x00
0.156478560000000,LIN,Inter-Byte Space
0.156501100000000,LIN,Data 0: 0x00
0.156956900000000,LIN,Inter-Byte Space
0.156979400000000,LIN,Data 1: 0x00
0.157435200000000,LIN,Inter-Byte Space
0.157457740000000,LIN,Data 2: 0xF8
0.157913540000000,LIN,Inter-Byte Space
0.157936100000000,LIN,Data 3: 0xFC
0.158391900000000,LIN,Inter-Byte Space
0.158414420000000,LIN,Checksum: 0x89
0.164717820000000,LIN,Header Break
0.165479000000000,LIN,Inter-Byte Space
0.165530920000000,LIN,Header Sync
0.165986720000000,LIN,Inter-Byte Space
0.166009240000000,LIN,Protected ID: 0x28
0.166465040000000,LIN,Inter-Byte Space
0.166487580000000,LIN,Data 0: 0x00
0.166943380000000,LIN,Inter-Byte Space
0.166965900000000,LIN,Data 1: 0x00
0.167421700000000,LIN,Inter-Byte Space
0.167444220000000,LIN,Data 2: 0xF8
0.167900020000000,LIN,Inter-Byte Space
0.167922600000000,LIN,Data 3: 0xFC
0.168378400000000,LIN,Inter-Byte Space
0.168400920000000,LIN,Checksum: 0x61
0.174695200000000,LIN,Header Break
0.175456320000000,LIN,Inter-Byte Space
0.175508300000000,LIN,Header Sync
0.175964100000000,LIN,Inter-Byte Space
0.175986620000000,LIN,Protected ID: 0x08
0.176442420000000,LIN,Inter-Byte Space
0.176464940000000,LIN,Data 0: 0x00
0.176920740000000,LIN,Inter-Byte Space
0.176943280000000,LIN,Data 1: 0x00
0.177399080000000,LIN,Inter-Byte Space
0.177421600000000,LIN,Data 2: 0xF8
0.177877400000000,LIN,Inter-Byte Space
0.177899960000000,LIN,Data 3: 0xFC
0.178355760000000,LIN,Inter-Byte Space
0.178378300000000,LIN,Data 4: 0x02
0.204667060000000,LIN,Header Break
0.205428220000000,LIN,Inter-Byte Space
0.205480140000000,LIN,Header Sync
0.205935940000000,LIN,Inter-Byte Space
0.205958460000000,LIN,Protected ID: 0x14
0.206414260000000,LIN,Inter-Byte Space
0.206436800000000,LIN,Data 0: 0x80
0.206892600000000,LIN,Inter-Byte Space
0.206915120000000,LIN,Data 1: 0xFF
0.207370920000000,LIN,Inter-Byte Space
0.207393480000000,LIN,Checksum: 0x6B
0.214658660000000,LIN,Header Break
0.215419820000000,LIN,Inter-Byte Space
0.215471760000000,LIN,Header Sync
0.215927560000000,LIN,Inter-Byte Space
0.215950080000000,LIN,Protected ID: 0x18
0.216405880000000,LIN,Inter-Byte Space
0.216428420000000,LIN,Data 0: 0x00
0.216884220000000,LIN,Inter-Byte Space
0.216906740000000,LIN,Data 1: 0xFF
0.217362540000000,LIN,Inter-Byte Space
0.217385100000000,LIN,Data 2: 0xFF
0.217840900000000,LIN,Inter-Byte Space
0.217863420000000,LIN,Data 3: 0xFF
0.218319220000000,LIN,Inter-Byte Space
0.218341740000000,LIN,Checksum: 0x27
0.224652320000000,LIN,Header Break
0.225413500000000,LIN,Inter-Byte Space
0.225465420000000,LIN,Header Sync
0.225921220000000,LIN,Inter-Byte Space
0.225943740000000,LIN,Protected ID: 0x22
0.234644320000000,LIN,Header Break
0.235405500000000,LIN,Inter-Byte Space
0.235457400000000,LIN,Header Sync
0.235913200000000,LIN,Inter-Byte Space
0.235935740000000,LIN,Protected ID: 0x02
0.244621120000000,LIN,Header Break
0.245382320000000,LIN,Inter-Byte Space
0.245434220000000,LIN,Header Sync
0.245890020000000,LIN,Inter-Byte Space
0.245912540000000,LIN,Protected ID: 0x2A
0.254635580000000,LIN,Header Break
0.255396780000000,LIN,Inter-Byte Space
0.255448680000000,LIN,Header Sync
0.255904480000000,LIN,Inter-Byte Space
0.255927020000000,LIN,Protected ID: 0x0A
0.284610560000000,LIN,Header Break
0.285371740000000,LIN,Inter-Byte Space
0.285423660000000,LIN,Header Sync
0.285879460000000,LIN,Inter-Byte Space
0.285901980000000,LIN,Protected ID: 0x19
0.294593420000000,LIN,Header Break
0.295354620000000,LIN,Inter-Byte Space
0.295406520000000,LIN,Header Sync
0.295862320000000,LIN,Inter-Byte Space
0.295884840000000,LIN,Protected ID: 0x1A
0.304584100000000,LIN,Header Break
0.305345260000000,LIN,Inter-Byte Space
0.305397200000000,LIN,Header Sync
0.305853000000000,LIN,Inter-Byte Space
0.305875520000000,LIN,Protected ID: 0x1B
0.314592520000000,LIN,Header Break
0.315353700000000,LIN,Inter-Byte Space
0.315405620000000,LIN,Header Sync
0.315861420000000,LIN,Inter-Byte Space
0.315883940000000,LIN,Protected ID: 0x21
0.316339740000000,LIN,Inter-Byte Space
0.316362260000000,LIN,Data 0: 0x00
0.316818060000000,LIN,Inter-Byte Space
0.316840580000000,LIN,Data 1: 0x00
0.317296380000000,LIN,Inter-Byte Space
0.317318920000000,LIN,Data 2: 0xF8
0.317774720000000,LIN,Inter-Byte Space
0.317797280000000,LIN,Data 3: 0xFF
0.318253080000000,LIN,Inter-Byte Space
0.318275600000000,LIN,Checksum: 0xA5
0.324562460000000,LIN,Header Break
0.325323640000000,LIN,Inter-Byte Space
0.325375540000000,LIN,Header Sync
0.325831340000000,LIN,Inter-Byte Space
0.325853880000000,LIN,Protected ID: 0x01
0.326309680000000,LIN,Inter-Byte Space
0.326332220000000,LIN,Data 0: 0x00
0.326788020000000,LIN,Inter-Byte Space
0.326810500000000,LIN,Data 1: 0x00
0.327266300000000,LIN,Inter-Byte Space
0.327288860000000,LIN,Data 2: 0xF8
0.327744660000000,LIN,Inter-Byte Space
0.327767200000000,LIN,Data 3: 0xFF
0.328223000000000,LIN,Inter-Byte Space
0.328245540000000,LIN,Data 4: 0x45
0.334564060000000,LIN,Header Break
0.335325220000000,LIN,Inter-Byte Space
0.335377140000000,LIN,Header Sync
0.335832940000000,LIN,Inter-Byte Space
0.335855480000000,LIN,Protected ID: 0x29
0.336311280000000,LIN,Inter-Byte Space
0.336333820000000,LIN,Data 0: 0x00
0.336789620000000,LIN,Inter-Byte Space
0.336812140000000,LIN,Data 1: 0x00
0.337267940000000,LIN,Inter-Byte Space
0.337290460000000,LIN,Data 2: 0xF8
0.337746260000000,LIN,Inter-Byte Space
0.337768800000000,LIN,Data 3: 0xFF
0.338224600000000,LIN,Inter-Byte Space
0.338247140000000,LIN,Checksum: 0x1D
0.344562420000000,LIN,Header Break
0.345323580000000,LIN,Inter-Byte Space
0.345375500000000,LIN,Header Sync
0.345831300000000,LIN,Inter-Byte Space
0.345853840000000,LIN,Protected ID: 0x09
0.346309640000000,LIN,Inter-Byte Space
0.346332160000000,LIN,Data 0: 0x00
0.346787960000000,LIN,Inter-Byte Space
0.346810480000000,LIN,Data 1: 0x00
0.347266280000000,LIN,Inter-Byte Space
0.347288820000000,LIN,Data 2: 0xF8
0.347744620000000,LIN,Inter-Byte Space
0.347767180000000,LIN,Data 3: 0xFF
0.348222980000000,LIN,Inter-Byte Space
0.348245500000000,LIN,Data 4: 0xBD
0.374538000000000,LIN,Header Break
0.375299180000000,LIN,Inter-Byte Space
0.375351080000000,LIN,Header Sync
0.375806880000000,LIN,Inter-Byte Space
0.375829420000000,LIN,Protected ID: 0x34
0.376285220000000,LIN,Inter-Byte Space
0.376307760000000,LIN,Data 0: 0xFE
0.376763560000000,LIN,Inter-Byte Space
0.376786100000000,LIN,Data 1: 0xFF
0.377241900000000,LIN,Inter-Byte Space
0.377264440000000,LIN,Data 2: 0x4C
0.384508260000000,LIN,Header Break
0.385269440000000,LIN,Inter-Byte Space
0.385321340000000,LIN,Header Sync
0.385777140000000,LIN,Inter-Byte Space
0.385799680000000,LIN,Protected ID: 0x35
0.434500560000000,LIN,Header Break
0.435261740000000,LIN,Inter-Byte Space
0.435313640000000,LIN,Header Sync
0.435769440000000,LIN,Inter-Byte Space
0.435791940000000,LIN,Protected ID: 0x15
0.436247740000000,LIN,Inter-Byte Space
0.436281180000000,LIN,Data 0: 0x00
0.436736980000000,LIN,Inter-Byte Space
0.436759060000000,LIN,Data 1: 0xA2
0.437214860000000,LIN,Inter-Byte Space
0.437237080000000,LIN,Data 2: 0x80
0.437692880000000,LIN,Inter-Byte Space
0.437714740000000,LIN,Data 3: 0x00
0.438170540000000,LIN,Inter-Byte Space
0.438192480000000,LIN,Checksum: 0x87
0.444474100000000,LIN,Header Break
0.445235280000000,LIN,Inter-Byte Space
0.445287200000000,LIN,Header Sync
0.445743000000000,LIN,Inter-Byte Space
0.445765520000000,LIN,Protected ID: 0x20
0.446221320000000,LIN,Inter-Byte Space
0.446243860000000,LIN,Data 0: 0x00
0.446699660000000,LIN,Inter-Byte Space
0.446722180000000,LIN,Data 1: 0x00
0.447177980000000,LIN,Inter-Byte Space
0.447200500000000,LIN,Data 2: 0xF8
0.447656300000000,LIN,Inter-Byte Space
0.447678860000000,LIN,Data 3: 0xFC
0.448134660000000,LIN,Inter-Byte Space
0.448157200000000,LIN,Data 4: 0xE9
0.454472900000000,LIN,Header Break
0.455234080000000,LIN,Inter-Byte Space
0.455286000000000,LIN,Header Sync
0.455741800000000,LIN,Inter-Byte Space
0.455764320000000,LIN,Protected ID: 0x00
0.456220120000000,LIN,Inter-Byte Space
0.456242640000000,LIN,Data 0: 0x00
0.456698440000000,LIN,Inter-Byte Space
0.456720980000000,LIN,Data 1: 0x00
0.457176780000000,LIN,Inter-Byte Space
0.457199300000000,LIN,Data 2: 0xF8
0.457655100000000,LIN,Inter-Byte Space
0.457677660000000,LIN,Data 3: 0xFC
0.458133460000000,LIN,Inter-Byte Space
0.458156000000000,LIN,Checksum: 0x89
0.464474740000000,LIN,Header Break
0.465235920000000,LIN,Inter-Byte Space
0.465287840000000,LIN,Header Sync
0.465743640000000,LIN,Inter-Byte Space
0.465766180000000,LIN,Protected ID: 0x28
0.466221980000000,LIN,Inter-Byte Space
0.466244520000000,LIN,Data 0: 0x00
0.466700320000000,LIN,Inter-Byte Space
0.466722820000000,LIN,Data 1: 0x00
0.467178620000000,LIN,Inter-Byte Space
0.467201140000000,LIN,Data 2: 0xF8
0.467656940000000,LIN,Inter-Byte Space
0.467679520000000,LIN,Data 3: 0xFC
0.468135320000000,LIN,Inter-Byte Space
0.468157840000000,LIN,Checksum: 0x61
0.474450300000000,LIN,Header Break
0.475211500000000,LIN,Inter-Byte Space
0.475263400000000,LIN,Header Sync
0.475719200000000,LIN,Inter-Byte Space
0.475741740000000,LIN,Protected ID: 0x08
0.476197540000000,LIN,Inter-Byte Space
0.476220060000000,LIN,Data 0: 0x00
0.476675860000000,LIN,Inter-Byte Space
0.476698380000000,LIN,Data 1: 0x00
0.477154180000000,LIN,Inter-Byte Space
0.477176720000000,LIN,Data 2: 0xF8
0.477632520000000,LIN,Inter-Byte Space
0.477655060000000,LIN,Data 3: 0xFC
0.478110860000000,LIN,Inter-Byte Space
0.478133400000000,LIN,Data 4: 0x02
0.504422040000000,LIN,Header Break
0.505183200000000,LIN,Inter-Byte Space
0.505235120000000,LIN,Header Sync
0.505690920000000,LIN,Inter-Byte Space
0.505713440000000,LIN,Protected ID: 0x14
0.506169240000000,LIN,Inter-Byte Space
0.506191780000000,LIN,Data 0: 0x80
0.506647580000000,LIN,Inter-Byte Space
0.506670120000000,LIN,Data 1: 0xFF
0.507125920000000,LIN,Inter-Byte Space
0.507148480000000,LIN,Checksum: 0x6B
0.514413700000000,LIN,Header Break
0.515174880000000,LIN,Inter-Byte Space
0.515226800000000,LIN,Header Sync
0.515682600000000,LIN,Inter-Byte Space
0.515705120000000,LIN,Protected ID: 0x18
0.516160920000000,LIN,Inter-Byte Space
0.516183480000000,LIN,Data 0: 0x00
0.516639280000000,LIN,Inter-Byte Space
0.516661780000000,LIN,Data 1: 0xFF
0.517117580000000,LIN,Inter-Byte Space
0.517140140000000,LIN,Data 2: 0xFF
0.517595940000000,LIN,Inter-Byte Space
0.517618460000000,LIN,Data 3: 0xFF
0.518074260000000,LIN,Inter-Byte Space
0.518096800000000,LIN,Checksum: 0x27
0.524407500000000,LIN,Header Break
0.525168700000000,LIN,Inter-Byte Space
0.525220600000000,LIN,Header Sync
0.525676400000000,LIN,Inter-Byte Space
0.525698920000000,LIN,Protected ID: 0x22
0.534425720000000,LIN,Header Break
0.535186900000000,LIN,Inter-Byte Space
0.535238800000000,LIN,Header Sync
0.535694600000000,LIN,Inter-Byte Space
0.535717140000000,LIN,Protected ID: 0x02
0.544383720000000,LIN,Header Break
0.545144900000000,LIN,Inter-Byte Space
0.545196820000000,LIN,Header Sync
0.545652620000000,LIN,Inter-Byte Space
0.545675160000000,LIN,Protected ID: 0x2A
0.554390700000000,LIN,Header Break
0.555151880000000,LIN,Inter-Byte Space
0.555203800000000,LIN,Header Sync
0.555659600000000,LIN,Inter-Byte Space
0.555682140000000,LIN,Protected ID: 0x0A
0.584389980000000,LIN,Header Break
0.585151160000000,LIN,Inter-Byte Space
0.585203040000000,LIN,Header Sync
0.585658840000000,LIN,Inter-Byte Space
0.585681380000000,LIN,Protected ID: 0x19
0.594348480000000,LIN,Header Break
0.595109660000000,LIN,Inter-Byte Space
0.595161560000000,LIN,Header Sync
0.595617360000000,LIN,Inter-Byte Space
0.595639900000000,LIN,Protected ID: 0x1A
0.604331780000000,LIN,Header Break
0.605092920000000,LIN,Inter-Byte Space
0.605144880000000,LIN,Header Sync
0.605600680000000,LIN,Inter-Byte Space
0.605623200000000,LIN,Protected ID: 0x1B
0.614347680000000,LIN,Header Break
0.615108860000000,LIN,Inter-Byte Space
0.615160780000000,LIN,Header Sync
0.615616580000000,LIN,Inter-Byte Space
0.615639100000000,LIN,Protected ID: 0x21
0.616094900000000,LIN,Inter-Byte Space
0.616117420000000,LIN,Data 0: 0x00
0.616573220000000,LIN,Inter-Byte Space
0.616595760000000,LIN,Data 1: 0x00
0.617051560000000,LIN,Inter-Byte Space
0.617074080000000,LIN,Data 2: 0xF8
0.617529880000000,LIN,Inter-Byte Space
0.617552440000000,LIN,Data 3: 0xFF
0.618008240000000,LIN,Inter-Byte Space
0.618030780000000,LIN,Data 4: 0xA5
0.624317560000000,LIN,Header Break
0.625078740000000,LIN,Inter-Byte Space
0.625130660000000,LIN,Header Sync
0.625586460000000,LIN,Inter-Byte Space
0.625609000000000,LIN,Protected ID: 0x01
0.626064800000000,LIN,Inter-Byte Space
0.626087340000000,LIN,Data 0: 0x00
0.626543140000000,LIN,Inter-Byte Space
0.626565640000000,LIN,Data 1: 0x00
0.627021440000000,LIN,Inter-Byte Space
0.627043980000000,LIN,Data 2: 0xF8
0.627499780000000,LIN,Inter-Byte Space
0.627522340000000,LIN,Data 3: 0xFF
0.627978140000000,LIN,Inter-Byte Space
0.628000660000000,LIN,Checksum: 0x45
0.634319100000000,LIN,Header Break
0.635080280000000,LIN,Inter-Byte Space
0.635132200000000,LIN,Header Sync
0.635588000000000,LIN,Inter-Byte Space
0.635610520000000,LIN,Protected ID: 0x29
0.636066320000000,LIN,Inter-Byte Space
0.636088880000000,LIN,Data 0: 0x00
0.636544680000000,LIN,Inter-Byte Space
0.636567180000000,LIN,Data 1: 0x00
0.637022980000000,LIN,Inter-Byte Space
0.637045500000000,LIN,Data 2: 0xF8
0.637501300000000,LIN,Inter-Byte Space
0.637523880000000,LIN,Data 3: 0xFF
0.637979680000000,LIN,Inter-Byte Space
0.638002200000000,LIN,Checksum: 0x1D
0.644317640000000,LIN,Header Break
0.645078840000000,LIN,Inter-Byte Space
0.645130740000000,LIN,Header Sync
0.645586540000000,LIN,Inter-Byte Space
0.645609060000000,LIN,Protected ID: 0x09
0.646064860000000,LIN,Inter-Byte Space
0.646087400000000,LIN,Data 0: 0x00
0.646543200000000,LIN,Inter-Byte Space
0.646565720000000,LIN,Data 1: 0x00
0.647021520000000,LIN,Inter-Byte Space
0.647044040000000,LIN,Data 2: 0xF8
0.647499840000000,LIN,Inter-Byte Space
0.647522400000000,LIN,Data 3: 0xFF
0.647978200000000,LIN,Inter-Byte Space
0.648000740000000,LIN,Data 4: 0xBD
0.674280080000000,LIN,Header Break
0.675041240000000,LIN,Inter-Byte Space
0.675093140000000,LIN,Header Sync
0.675548940000000,LIN,Inter-Byte Space
0.675571480000000,LIN,Protected ID: 0x34
0.676027280000000,LIN,Inter-Byte Space
0.676049820000000,LIN,Data 0: 0xFE
0.676505620000000,LIN,Inter-Byte Space
0.676528180000000,LIN,Data 1: 0xFF
0.676983980000000,LIN,Inter-Byte Space
0.677006500000000,LIN,Checksum: 0x4C
0.684279600000000,LIN,Header Break
0.685040800000000,LIN,Inter-Byte Space
0.685092680000000,LIN,Header Sync
0.685548480000000,LIN,Inter-Byte Space
0.685571020000000,LIN,Protected ID: 0x35
0.734245040000000,LIN,Header Break
0.735006220000000,LIN,Inter-Byte Space
0.735058120000000,LIN,Header Sync
0.735513920000000,LIN,Inter-Byte Space
0.735536440000000,LIN,Protected ID: 0x15
0.735992240000000,LIN,Inter-Byte Space
0.736026640000000,LIN,Data 0: 0x00
0.736482440000000,LIN,Inter-Byte Space
0.736504440000000,LIN,Data 1: 0xA2
0.736960240000000,LIN,Inter-Byte Space
0.736982260000000,LIN,Data 2: 0x80
0.737438060000000,LIN,Inter-Byte Space
0.737459720000000,LIN,Data 3: 0x00
0.737915520000000,LIN,Inter-Byte Space
0.737937380000000,LIN,Checksum: 0x87
