Time [s], Analyzer Name, Decoded Protocol Result
0.018619990000000,LIN,Header Break
0.020203820000000,LIN,Inter-Byte Space
0.020246190000000,LIN,Header Sync
0.021158090000000,LIN,Inter-Byte Space
0.021202790000000,LIN,Protected ID: 0x1A
0.038601290000000,LIN,Header Break
0.040123620000000,LIN,Inter-Byte Space
0.040227440000000,LIN,Header Sync
0.041139340000000,LIN,Inter-Byte Space
0.041184110000000,LIN,Protected ID: 0x1B
0.058618040000000,LIN,Header Break
0.060140320000000,LIN,Inter-Byte Space
0.060244220000000,LIN,Header Sync
0.061156120000000,LIN,Inter-Byte Space
0.061200890000000,LIN,Protected ID: 0x21
0.062112790000000,LIN,Inter-Byte Space
0.062157520000000,LIN,Data 0: 0x00
0.063069420000000,LIN,Inter-Byte Space
0.063114170000000,LIN,Data 1: 0x00
0.064026070000000,LIN,Inter-Byte Space
0.064070790000000,LIN,Data 2: 0xF8
0.064982690000000,LIN,Inter-Byte Space
0.065027510000000,LIN,Data 3: 0xFF
0.065939410000000,LIN,Inter-Byte Space
0.065984190000000,LIN,Checksum: 0xA5
0.078557390000000,LIN,Header Break
0.080079740000000,LIN,Inter-Byte Space
0.080183550000000,LIN,Header Sync
0.081095450000000,LIN,Inter-Byte Space
0.081140180000000,LIN,Protected ID: 0x01
0.082052080000000,LIN,Inter-Byte Space
0.082096890000000,LIN,Data 0: 0x00
0.083008790000000,LIN,Inter-Byte Space
0.083053520000000,LIN,Data 1: 0x00
0.083965420000000,LIN,Inter-Byte Space
0.084010150000000,LIN,Data 2: 0xF8
0.084922050000000,LIN,Inter-Byte Space
0.084966840000000,LIN,Data 3: 0xFF
0.085878740000000,LIN,Inter-Byte Space
0.085923510000000,LIN,Checksum: 0x45
0.098561300000000,LIN,Header Break
0.100083620000000,LIN,Inter-Byte Space
0.100187450000000,LIN,Header Sync
0.101099350000000,LIN,Inter-Byte Space
0.101144110000000,LIN,Protected ID: 0x29
0.102056010000000,LIN,Inter-Byte Space
0.102100780000000,LIN,Data 0: 0x00
0.103012680000000,LIN,Inter-Byte Space
0.103057390000000,LIN,Data 1: 0x00
0.103969290000000,LIN,Inter-Byte Space
0.104014060000000,LIN,Data 2: 0xF8
0.104925960000000,LIN,Inter-Byte Space
0.104970750000000,LIN,Data 3: 0xFF
0.105882650000000,LIN,Inter-Byte Space
0.105927400000000,LIN,Checksum: 0x1D
0.118568090000000,LIN,Header Break
0.120090420000000,LIN,Inter-Byte Space
0.120194230000000,LIN,Header Sync
0.121106130000000,LIN,Inter-Byte Space
0.121150880000000,LIN,Protected ID: 0x09
0.122062780000000,LIN,Inter-Byte Space
0.122107510000000,LIN,Data 0: 0x00
0.123019410000000,LIN,Inter-Byte Space
0.123064180000000,LIN,Data 1: 0x00
0.123976080000000,LIN,Inter-Byte Space
0.124020840000000,LIN,Data 2: 0xF8
0.124932740000000,LIN,Inter-Byte Space
0.124977510000000,LIN,Data 3: 0xFF
0.125889410000000,LIN,Inter-Byte Space
0.125934110000000,LIN,Data 4: 0xBD
0.178481500000000,LIN,Header Break
0.180003810000000,LIN,Inter-Byte Space
0.180107680000000,LIN,Header Sync
0.181019580000000,LIN,Inter-Byte Space
0.181064270000000,LIN,Protected ID: 0x34
0.181976170000000,LIN,Inter-Byte Space
0.182020960000000,LIN,Data 0: 0xFE
0.182932860000000,LIN,Inter-Byte Space
0.182977650000000,LIN,Data 1: 0xFF
0.183889550000000,LIN,Inter-Byte Space
0.183934310000000,LIN,Checksum: 0x4C
0.198448060000000,LIN,Header Break
0.199970370000000,LIN,Inter-Byte Space
0.200074220000000,LIN,Header Sync
0.200986120000000,LIN,Inter-Byte Space
0.201030840000000,LIN,Protected ID: 0x35
0.298410270000000,LIN,Header Break
0.299932570000000,LIN,Inter-Byte Space
0.300036380000000,LIN,Header Sync
0.300948280000000,LIN,Inter-Byte Space
0.300993030000000,LIN,Protected ID: 0x15
0.301904930000000,LIN,Inter-Byte Space
0.301978550000000,LIN,Data 0: 0x00
0.302890450000000,LIN,Inter-Byte Space
0.302934950000000,LIN,Data 1: 0xD2
0.303846850000000,LIN,Inter-Byte Space
0.303891760000000,LIN,Data 2: 0x80
0.304803660000000,LIN,Inter-Byte Space
0.304848020000000,LIN,Data 3: 0x00
0.305759920000000,LIN,Inter-Byte Space
0.305804570000000,LIN,Checksum: 0x57
0.318436710000000,LIN,Header Break
0.319959030000000,LIN,Inter-Byte Space
0.320062890000000,LIN,Header Sync
0.320974790000000,LIN,Inter-Byte Space
0.321019540000000,LIN,Protected ID: 0x20
0.321931440000000,LIN,Inter-Byte Space
0.321976190000000,LIN,Data 0: 0x00
0.322888090000000,LIN,Inter-Byte Space
0.322932830000000,LIN,Data 1: 0x00
0.323844730000000,LIN,Inter-Byte Space
0.323889450000000,LIN,Data 2: 0xF8
0.324801350000000,LIN,Inter-Byte Space
0.324846180000000,LIN,Data 3: 0xFC
0.325758080000000,LIN,Inter-Byte Space
0.325802850000000,LIN,Data 4: 0xE9
0.338354180000000,LIN,Header Break
0.339876510000000,LIN,Inter-Byte Space
0.339980370000000,LIN,Header Sync
0.340892270000000,LIN,Inter-Byte Space
0.340937030000000,LIN,Protected ID: 0x00
0.341848930000000,LIN,Inter-Byte Space
0.341893670000000,LIN,Data 0: 0x00
0.342805570000000,LIN,Inter-Byte Space
0.342850300000000,LIN,Data 1: 0x00
0.343762200000000,LIN,Inter-Byte Space
0.343806980000000,LIN,Data 2: 0xF8
0.344718880000000,LIN,Inter-Byte Space
0.344763670000000,LIN,Data 3: 0xFC
0.345675570000000,LIN,Inter-Byte Space
0.345720320000000,LIN,Checksum: 0x89
0.358348590000000,LIN,Header Break
0.359870930000000,LIN,Inter-Byte Space
0.359974780000000,LIN,Header Sync
0.360886680000000,LIN,Inter-Byte Space
0.360931430000000,LIN,Protected ID: 0x28
0.361843330000000,LIN,Inter-Byte Space
0.361888070000000,LIN,Data 0: 0x00
0.362799970000000,LIN,Inter-Byte Space
0.362844720000000,LIN,Data 1: 0x00
0.363756620000000,LIN,Inter-Byte Space
0.363801350000000,LIN,Data 2: 0xF8
0.364713250000000,LIN,Inter-Byte Space
0.364758010000000,LIN,Data 3: 0xFC
0.365669910000000,LIN,Inter-Byte Space
0.365714740000000,LIN,Data 4: 0x61
0.378303160000000,LIN,Header Break
0.379825490000000,LIN,Inter-Byte Space
0.379929350000000,LIN,Header Sync
0.380841250000000,LIN,Inter-Byte Space
0.380885990000000,LIN,Protected ID: 0x08
0.381797890000000,LIN,Inter-Byte Space
0.381842660000000,LIN,Data 0: 0x00
0.382754560000000,LIN,Inter-Byte Space
0.382799300000000,LIN,Data 1: 0x00
0.383711200000000,LIN,Inter-Byte Space
0.383755900000000,LIN,Data 2: 0xF8
0.384667800000000,LIN,Inter-Byte Space
0.384712640000000,LIN,Data 3: 0xFC
0.385624540000000,LIN,Inter-Byte Space
0.385669300000000,LIN,Data 4: 0x02
0.438250200000000,LIN,Header Break
0.439772560000000,LIN,Inter-Byte Space
0.439876350000000,LIN,Header Sync
0.440788250000000,LIN,Inter-Byte Space
0.440833000000000,LIN,Protected ID: 0x14
0.441744900000000,LIN,Inter-Byte Space
0.441789660000000,LIN,Data 0: 0x80
0.442701560000000,LIN,Inter-Byte Space
0.442746300000000,LIN,Data 1: 0xFF
0.443658200000000,LIN,Inter-Byte Space
0.443703020000000,LIN,Checksum: 0x6B
0.458232860000000,LIN,Header Break
0.459755190000000,LIN,Inter-Byte Space
0.459859030000000,LIN,Header Sync
0.460770930000000,LIN,Inter-Byte Space
0.460815660000000,LIN,Protected ID: 0x18
0.461727560000000,LIN,Inter-Byte Space
0.461772360000000,LIN,Data 0: 0x00
0.462684260000000,LIN,Inter-Byte Space
0.462728970000000,LIN,Data 1: 0xFF
0.463640870000000,LIN,Inter-Byte Space
0.463685670000000,LIN,Data 2: 0xFF
0.464597570000000,LIN,Inter-Byte Space
0.464642330000000,LIN,Data 3: 0xFF
0.465554230000000,LIN,Inter-Byte Space
0.465598980000000,LIN,Data 4: 0x27
0.478217280000000,LIN,Header Break
0.479739570000000,LIN,Inter-Byte Space
0.479843460000000,LIN,Header Sync
0.480755360000000,LIN,Inter-Byte Space
0.480800100000000,LIN,Protected ID: 0x22
0.498214560000000,LIN,Header Break
0.499736860000000,LIN,Inter-Byte Space
0.499840720000000,LIN,Header Sync
0.500752620000000,LIN,Inter-Byte Space
0.500797390000000,LIN,Protected ID: 0x02
0.518196360000000,LIN,Header Break
0.519718710000000,LIN,Inter-Byte Space
0.519822530000000,LIN,Header Sync
0.520734430000000,LIN,Inter-Byte Space
0.520779160000000,LIN,Protected ID: 0x2A
0.538209890000000,LIN,Header Break
0.539732220000000,LIN,Inter-Byte Space
0.539836040000000,LIN,Header Sync
0.540747940000000,LIN,Inter-Byte Space
0.540792680000000,LIN,Protected ID: 0x0A
0.598159270000000,LIN,Header Break
0.599681560000000,LIN,Inter-Byte Space
0.599785410000000,LIN,Header Sync
0.600697310000000,LIN,Inter-Byte Space
0.600742030000000,LIN,Protected ID: 0x19
0.618124920000000,LIN,Header Break
0.619647260000000,LIN,Inter-Byte Space
0.619751130000000,LIN,Header Sync
0.620663030000000,LIN,Inter-Byte Space
0.620707760000000,LIN,Protected ID: 0x1A
0.638106250000000,LIN,Header Break
0.639628530000000,LIN,Inter-Byte Space
0.639732400000000,LIN,Header Sync
0.640644300000000,LIN,Inter-Byte Space
0.640689040000000,LIN,Protected ID: 0x1B
0.658122990000000,LIN,Header Break
0.659645350000000,LIN,Inter-Byte Space
0.659749170000000,LIN,Header Sync
0.660661070000000,LIN,Inter-Byte Space
0.660705810000000,LIN,Protected ID: 0x21
0.661617710000000,LIN,Inter-Byte Space
0.661662460000000,LIN,Data 0: 0x00
0.662574360000000,LIN,Inter-Byte Space
0.662619120000000,LIN,Data 1: 0x00
0.663531020000000,LIN,Inter-Byte Space
0.663575760000000,LIN,Data 2: 0xF8
0.664487660000000,LIN,Inter-Byte Space
0.664532440000000,LIN,Data 3: 0xFF
0.665444340000000,LIN,Inter-Byte Space
0.665489120000000,LIN,Data 4: 0xA5
0.678062210000000,LIN,Header Break
0.679584540000000,LIN,Inter-Byte Space
0.679688380000000,LIN,Header Sync
0.680600280000000,LIN,Inter-Byte Space
0.680645000000000,LIN,Protected ID: 0x01
0.681556900000000,LIN,Inter-Byte Space
0.681601690000000,LIN,Data 0: 0x00
0.682513590000000,LIN,Inter-Byte Space
0.682558330000000,LIN,Data 1: 0x00
0.683470230000000,LIN,Inter-Byte Space
0.683514950000000,LIN,Data 2: 0xF8
0.684426850000000,LIN,Inter-Byte Space
0.684471700000000,LIN,Data 3: 0xFF
0.685383600000000,LIN,Inter-Byte Space
0.685428310000000,LIN,Checksum: 0x45
0.698065460000000,LIN,Header Break
0.699587800000000,LIN,Inter-Byte Space
0.699691680000000,LIN,Header Sync
0.700603580000000,LIN,Inter-Byte Space
0.700648300000000,LIN,Protected ID: 0x29
0.701560200000000,LIN,Inter-Byte Space
0.701604970000000,LIN,Data 0: 0x00
0.702516870000000,LIN,Inter-Byte Space
0.702561580000000,LIN,Data 1: 0x00
0.703473480000000,LIN,Inter-Byte Space
0.703518240000000,LIN,Data 2: 0xF8
0.704430140000000,LIN,Inter-Byte Space
0.704474950000000,LIN,Data 3: 0xFF
0.705386850000000,LIN,Inter-Byte Space
0.705431600000000,LIN,Checksum: 0x1D
0.718062130000000,LIN,Header Break
0.719584430000000,LIN,Inter-Byte Space
0.719688290000000,LIN,Header Sync
0.720600190000000,LIN,Inter-Byte Space
0.720644960000000,LIN,Protected ID: 0x09
0.721556860000000,LIN,Inter-Byte Space
0.721601610000000,LIN,Data 0: 0x00
0.722513510000000,LIN,Inter-Byte Space
0.722558230000000,LIN,Data 1: 0x00
0.723470130000000,LIN,Inter-Byte Space
0.723514900000000,LIN,Data 2: 0xF8
0.724426800000000,LIN,Inter-Byte Space
0.724471630000000,LIN,Data 3: 0xFF
0.725383530000000,LIN,Inter-Byte Space
0.725428270000000,LIN,Data 4: 0xBD
0.777986310000000,LIN,Header Break
0.779508590000000,LIN,Inter-Byte Space
0.779612470000000,LIN,Header Sync
0.780524370000000,LIN,Inter-Byte Space
0.780569120000000,LIN,Protected ID: 0x34
0.781481020000000,LIN,Inter-Byte Space
0.781525770000000,LIN,Data 0: 0xFE
0.782437670000000,LIN,Inter-Byte Space
0.782482480000000,LIN,Data 1: 0xFF
0.783394380000000,LIN,Inter-Byte Space
0.783439110000000,LIN,Checksum: 0x4C
0.797953090000000,LIN,Header Break
0.799475430000000,LIN,Inter-Byte Space
0.799579320000000,LIN,Header Sync
0.800491220000000,LIN,Inter-Byte Space
0.800535930000000,LIN,Protected ID: 0x35
0.897915080000000,LIN,Header Break
0.899437370000000,LIN,Inter-Byte Space
0.899541210000000,LIN,Header Sync
0.900453110000000,LIN,Inter-Byte Space
0.900497840000000,LIN,Protected ID: 0x15
0.901409740000000,LIN,Inter-Byte Space
0.901483170000000,LIN,Data 0: 0x00
0.902395070000000,LIN,Inter-Byte Space
0.902440020000000,LIN,Data 1: 0xD2
0.903351920000000,LIN,Inter-Byte Space
0.903396750000000,LIN,Data 2: 0x80
0.904308650000000,LIN,Inter-Byte Space
0.904353690000000,LIN,Data 3: 0x00
0.905265590000000,LIN,Inter-Byte Space
0.905310850000000,LIN,Checksum: 0x57
0.917863740000000,LIN,Header Break
0.919386060000000,LIN,Inter-Byte Space
0.919489920000000,LIN,Header Sync
0.920401820000000,LIN,Inter-Byte Space
0.920446580000000,LIN,Protected ID: 0x20
0.921358480000000,LIN,Inter-Byte Space
0.921403200000000,LIN,Data 0: 0x00
0.922315100000000,LIN,Inter-Byte Space
0.922359830000000,LIN,Data 1: 0x00
0.923271730000000,LIN,Inter-Byte Space
0.923316480000000,LIN,Data 2: 0xF8
0.924228380000000,LIN,Inter-Byte Space
0.924273200000000,LIN,Data 3: 0xFC
0.925185100000000,LIN,Inter-Byte Space
0.925229860000000,LIN,Data 4: 0xE9
0.937848400000000,LIN,Header Break
0.939370680000000,LIN,Inter-Byte Space
0.939474570000000,LIN,Header Sync
0.940386470000000,LIN,Inter-Byte Space
0.940431190000000,LIN,Protected ID: 0x00
0.941343090000000,LIN,Inter-Byte Space
0.941387890000000,LIN,Data 0: 0x00
0.942299790000000,LIN,Inter-Byte Space
0.942344510000000,LIN,Data 1: 0x00
0.943256410000000,LIN,Inter-Byte Space
0.943301150000000,LIN,Data 2: 0xF8
0.944213050000000,LIN,Inter-Byte Space
0.944257840000000,LIN,Data 3: 0xFC
0.945169740000000,LIN,Inter-Byte Space
0.945214530000000,LIN,Checksum: 0x89
0.957879770000000,LIN,Header Break
0.959401990000000,LIN,Inter-Byte Space
0.959505950000000,LIN,Header Sync
0.960417850000000,LIN,Inter-Byte Space
0.960462590000000,LIN,Protected ID: 0x28
0.961374490000000,LIN,Inter-Byte Space
0.961419260000000,LIN,Data 0: 0x00
0.962331160000000,LIN,Inter-Byte Space
0.962375870000000,LIN,Data 1: 0x00
0.963287770000000,LIN,Inter-Byte Space
0.963332530000000,LIN,Data 2: 0xF8
0.964244430000000,LIN,Inter-Byte Space
0.964289260000000,LIN,Data 3: 0xFC
0.965201160000000,LIN,Inter-Byte Space
0.965245900000000,LIN,Data 4: 0x61
0.977807990000000,LIN,Header Break
0.979330380000000,LIN,Inter-Byte Space
0.979434160000000,LIN,Header Sync
0.980346060000000,LIN,Inter-Byte Space
0.980390810000000,LIN,Protected ID: 0x08
0.981302710000000,LIN,Inter-Byte Space
0.981347450000000,LIN,Data 0: 0x00
0.982259350000000,LIN,Inter-Byte Space
0.982304120000000,LIN,Data 1: 0x00
0.983216020000000,LIN,Inter-Byte Space
0.983260770000000,LIN,Data 2: 0xF8
0.984172670000000,LIN,Inter-Byte Space
0.984217440000000,LIN,Data 3: 0xFC
0.985129340000000,LIN,Inter-Byte Space
0.985174090000000,LIN,Data 4: 0x02
1.037751390000000,LIN,Header Break
1.039273710000000,LIN,Inter-Byte Space
1.039377530000000,LIN,Header Sync
1.040289430000000,LIN,Inter-Byte Space
1.040334200000000,LIN,Protected ID: 0x14
1.041246100000000,LIN,Inter-Byte Space
1.041290850000000,LIN,Data 0: 0x80
1.042202750000000,LIN,Inter-Byte Space
1.042247520000000,LIN,Data 1: 0xFF
1.043159420000000,LIN,Inter-Byte Space
1.043204210000000,LIN,Checksum: 0x6B
1.057734440000000,LIN,Header Break
1.059256760000000,LIN,Inter-Byte Space
1.059360620000000,LIN,Header Sync
1.060272520000000,LIN,Inter-Byte Space
1.060317240000000,LIN,Protected ID: 0x18
1.061229140000000,LIN,Inter-Byte Space
1.061273920000000,LIN,Data 0: 0x00
1.062185820000000,LIN,Inter-Byte Space
1.062230550000000,LIN,Data 1: 0xFF
1.063142450000000,LIN,Inter-Byte Space
1.063187250000000,LIN,Data 2: 0xFF
1.064099150000000,LIN,Inter-Byte Space
1.064143910000000,LIN,Data 3: 0xFF
1.065055810000000,LIN,Inter-Byte Space
1.065100540000000,LIN,Data 4: 0x27
1.077721460000000,LIN,Header Break
1.079243760000000,LIN,Inter-Byte Space
1.079347630000000,LIN,Header Sync
1.080259530000000,LIN,Inter-Byte Space
1.080304290000000,LIN,Protected ID: 0x22
1.097705640000000,LIN,Header Break
1.099227960000000,LIN,Inter-Byte Space
1.099331830000000,LIN,Header Sync
1.100243730000000,LIN,Inter-Byte Space
1.100288440000000,LIN,Protected ID: 0x02
1.117665460000000,LIN,Header Break
1.119187760000000,LIN,Inter-Byte Space
1.119291630000000,LIN,Header Sync
1.120203530000000,LIN,Inter-Byte Space
1.120248260000000,LIN,Protected ID: 0x2A
1.137687710000000,LIN,Header Break
1.139210020000000,LIN,Inter-Byte Space
1.139313900000000,LIN,Header Sync
1.140225800000000,LIN,Inter-Byte Space
1.140270510000000,LIN,Protected ID: 0x0A
1.197637100000000,LIN,Header Break
1.199159370000000,LIN,Inter-Byte Space
1.199263260000000,LIN,Header Sync
1.200175160000000,LIN,Inter-Byte Space
1.200219890000000,LIN,Protected ID: 0x19
1.217602500000000,LIN,Header Break
1.219124830000000,LIN,Inter-Byte Space
1.219228710000000,LIN,Header Sync
1.220140610000000,LIN,Inter-Byte Space
1.220185370000000,LIN,Protected ID: 0x1A
1.237583710000000,LIN,Header Break
1.239106050000000,LIN,Inter-Byte Space
1.239209860000000,LIN,Header Sync
1.240121760000000,LIN,Inter-Byte Space
1.240166510000000,LIN,Protected ID: 0x1B
1.257600580000000,LIN,Header Break
1.259122890000000,LIN,Inter-Byte Space
1.259226760000000,LIN,Header Sync
1.260138660000000,LIN,Inter-Byte Space
1.260183390000000,LIN,Protected ID: 0x21
1.261095290000000,LIN,Inter-Byte Space
1.261140050000000,LIN,Data 0: 0x00
1.262051950000000,LIN,Inter-Byte Space
1.262096700000000,LIN,Data 1: 0x00
1.263008600000000,LIN,Inter-Byte Space
1.263053340000000,LIN,Data 2: 0xF8
1.263965240000000,LIN,Inter-Byte Space
1.264010030000000,LIN,Data 3: 0xFF
1.264921930000000,LIN,Inter-Byte Space
1.264966700000000,LIN,Data 4: 0xA5
1.277539810000000,LIN,Header Break
1.279062120000000,LIN,Inter-Byte Space
1.279165960000000,LIN,Header Sync
1.280077860000000,LIN,Inter-Byte Space
1.280122600000000,LIN,Protected ID: 0x01
1.281034500000000,LIN,Inter-Byte Space
1.281079300000000,LIN,Data 0: 0x00
1.281991200000000,LIN,Inter-Byte Space
1.282035900000000,LIN,Data 1: 0x00
1.282947800000000,LIN,Inter-Byte Space
1.282992560000000,LIN,Data 2: 0xF8
1.283904460000000,LIN,Inter-Byte Space
1.283949260000000,LIN,Data 3: 0xFF
1.284861160000000,LIN,Inter-Byte Space
1.284905910000000,LIN,Checksum: 0x45
1.297543050000000,LIN,Header Break
1.299065350000000,LIN,Inter-Byte Space
1.299169270000000,LIN,Header Sync
1.300081170000000,LIN,Inter-Byte Space
1.300125890000000,LIN,Protected ID: 0x29
1.301037790000000,LIN,Inter-Byte Space
1.301082570000000,LIN,Data 0: 0x00
1.301994470000000,LIN,Inter-Byte Space
1.302039190000000,LIN,Data 1: 0x00
1.302951090000000,LIN,Inter-Byte Space
1.302995830000000,LIN,Data 2: 0xF8
1.303907730000000,LIN,Inter-Byte Space
1.303952550000000,LIN,Data 3: 0xFF
1.304864450000000,LIN,Inter-Byte Space
1.304909210000000,LIN,Checksum: 0x1D
1.317539600000000,LIN,Header Break
1.319061900000000,LIN,Inter-Byte Space
1.319165790000000,LIN,Header Sync
1.320077690000000,LIN,Inter-Byte Space
1.320122430000000,LIN,Protected ID: 0x09
1.321034330000000,LIN,Inter-Byte Space
1.321079080000000,LIN,Data 0: 0x00
1.321990980000000,LIN,Inter-Byte Space
1.322035710000000,LIN,Data 1: 0x00
1.322947610000000,LIN,Inter-Byte Space
1.322992330000000,LIN,Data 2: 0xF8
1.323904230000000,LIN,Inter-Byte Space
1.323949050000000,LIN,Data 3: 0xFF
1.324860950000000,LIN,Inter-Byte Space
1.324905730000000,LIN,Data 4: 0xBD
1.377464030000000,LIN,Header Break
1.378986320000000,LIN,Inter-Byte Space
1.379090170000000,LIN,Header Sync
1.380002070000000,LIN,Inter-Byte Space
1.380046830000000,LIN,Protected ID: 0x34
1.380958730000000,LIN,Inter-Byte Space
1.381003510000000,LIN,Data 0: 0xFE
1.381915410000000,LIN,Inter-Byte Space
1.381960190000000,LIN,Data 1: 0xFF
1.382872090000000,LIN,Inter-Byte Space
1.382916830000000,LIN,Checksum: 0x4C
1.397403230000000,LIN,Header Break
1.398925590000000,LIN,Inter-Byte Space
1.399029380000000,LIN,Header Sync
1.399941280000000,LIN,Inter-Byte Space
1.399986040000000,LIN,Protected ID: 0x35
1.497392530000000,LIN,Header Break
1.498914810000000,LIN,Inter-Byte Space
1.499018680000000,LIN,Header Sync
1.499930580000000,LIN,Inter-Byte Space
1.499975330000000,LIN,Protected ID: 0x15
1.500887230000000,LIN,Inter-Byte Space
1.500952240000000,LIN,Data 0: 0x00
1.501864140000000,LIN,Inter-Byte Space
1.501908420000000,LIN,Data 1: 0xD2
1.502820320000000,LIN,Inter-Byte Space
